Circuit: * Z:\home\jambrosio\Desktop\AmpOP\EaD\Lab04\Q04 - Questão 1.asc

Warning: Multiple definitions of model "2scr375p" Type: BJT
Warning: Multiple definitions of model "bc857b" Type: BJT
Warning: Multiple definitions of model "bc847c" Type: BJT
Warning: Multiple definitions of model "bc847b" Type: BJT
Direct Newton iteration for .op point succeeded.
Semiconductor Device Operating Points:
                        --- Bipolar Transistors ---
Name:       q1
Model:      tbj
Ib:      -1.90e-04
Ic:      -1.90e-02
Vbe:     -7.13e-01
Vbc:      4.89e-08
Vce:     -7.13e-01
BetaDC:   1.00e+02
Gm:       7.36e-01
Rpi:      1.36e+02
Rx:       0.00e+00
Ro:       7.87e+03
Cbe:      0.00e+00
Cbc:      0.00e+00
Cjs:      0.00e+00
BetaAC:   1.00e+02
Cbx:      0.00e+00
Ft:       0.00e+00



Date: Mon May 12 09:51:00 2025
Total elapsed time: 0.076 seconds.

tnom = 27
temp = 27
method = trap
totiter = 3
traniter = 0
tranpoints = 0
accept = 0
rejected = 0
matrix size = 4
fillins = 0
solver = Normal
Matrix Compiler1: 118 bytes object code size
Matrix Compiler2: 282 bytes object code size
