Circuit: * Z:\home\jambrosio\Desktop\AmpOP\EaD\Lab 7\Q7-1.asc

Direct Newton iteration for .op point succeeded.
Semiconductor Device Operating Points:
                        --- JFET Transistors ---
Name:      j1
Model:    jfet
Id:      4.81e-02
Vgs:    -1.00e+00
Vds:     2.01e+00
Gm:      1.61e-02
Gds:     1.59e-02
Cgs:     0.00e+00
Cgd:     0.00e+00



Date: Fri Jun 27 22:36:14 2025
Total elapsed time: 0.064 seconds.

tnom = 27
temp = 27
method = trap
totiter = 5
traniter = 0
tranpoints = 0
accept = 0
rejected = 0
matrix size = 6
fillins = 0
solver = Normal
Matrix Compiler1: 146 bytes object code size
Matrix Compiler2: 380 bytes object code size
