Circuit: * Z:\home\jambrosio\Desktop\AmpOP\EaD\Lab 7\Q7-3.asc

Direct Newton iteration for .op point succeeded.
Semiconductor Device Operating Points:
                        --- MOSFET Transistors ---
Name:          m1
Model:        nmos
Id:          1.00e-03
Vgs:         1.00e+01
Vds:         2.96e+01
Vbs:         0.00e+00
Vth:         0.00e+00
Vdsat:       1.00e+01
Gm:          2.00e-04
Gds:         0.00e+00
Gmb:         0.00e+00
Cbd:         0.00e+00
Cbs:         0.00e+00
Cgsov:       0.00e+00
Cgdov:       0.00e+00
Cgbov:       0.00e+00
Cgs:         0.00e+00
Cgd:         0.00e+00
Cgb:         0.00e+00



Date: Fri Jun 27 22:42:36 2025
Total elapsed time: 0.094 seconds.

tnom = 27
temp = 27
method = trap
totiter = 5
traniter = 0
tranpoints = 0
accept = 0
rejected = 0
matrix size = 6
fillins = 0
solver = Normal
Matrix Compiler1: 146 bytes object code size
Matrix Compiler2: 380 bytes object code size
