Circuit: * Z:\home\jambrosio\Desktop\AmpOP\EaD\Lab 7\Q7-4.asc

Direct Newton iteration for .op point succeeded.
Semiconductor Device Operating Points:
                        --- MOSFET Transistors ---
Name:          m1
Model:       mosfet
Id:         -3.33e-02
Vgs:        -1.00e+01
Vds:        -1.33e+00
Vbs:         0.00e+00
Vth:        -1.00e+00
Vdsat:      -9.00e+00
Gm:          4.00e-03
Gds:         2.30e-02
Gmb:         0.00e+00
Cbd:         0.00e+00
Cbs:         0.00e+00
Cgsov:       0.00e+00
Cgdov:       0.00e+00
Cgbov:       0.00e+00
Cgs:         0.00e+00
Cgd:         0.00e+00
Cgb:         0.00e+00



Date: Fri Jun 27 22:44:55 2025
Total elapsed time: 0.088 seconds.

tnom = 27
temp = 27
method = trap
totiter = 6
traniter = 0
tranpoints = 0
accept = 0
rejected = 0
matrix size = 6
fillins = 0
solver = Normal
Matrix Compiler1: 146 bytes object code size
Matrix Compiler2: 380 bytes object code size
